T2878 8563:070 SEGGER J-Link V6.46 Log File (0000ms, 1179ms total)
T2878 8563:070 DLL Compiled: May 23 2019 17:49:56 (0000ms, 1179ms total)
T2878 8563:070 Logging started @ 2021-11-04 12:31 (0000ms, 1179ms total)
T2878 8563:070 JLINK_SetWarnOutHandler(...) (0000ms, 1179ms total)
T2878 8563:070 JLINK_OpenEx(...)
Firmware: J-Link ARM-OB STM32 compiled Aug 22 2012 19:52:04
Hardware: V7.00
S/N: 20090928
Feature(s): RDI,FlashDL,FlashBP,JFlash,GDBFull
TELNET listener socket opened on port 19021WEBSRV 
Starting webserver (0014ms, 1193ms total)
T2878 8563:070 WEBSRV Webserver running on local port 19080 (0014ms, 1193ms total)
T2878 8563:070   returns O.K. (0014ms, 1193ms total)
T2878 8563:084 JLINK_GetEmuCaps()  returns 0x88EA5833 (0000ms, 1193ms total)
T2878 8563:084 JLINK_TIF_GetAvailable(...) (0000ms, 1193ms total)
T2878 8563:084 JLINK_SetErrorOutHandler(...) (0000ms, 1193ms total)
T2878 8563:084 JLINK_ExecCommand("ProjectFile = "D:\project____\DMA_TEST\MDK-ARM\JLinkSettings.ini"", ...).   returns 0x00 (0001ms, 1194ms total)
T2878 8563:087 JLINK_ExecCommand("Device = STM32F411CEUx", ...). Device "STM32F411CE" selected.  returns 0x00 (0002ms, 1196ms total)
T2878 8563:089 JLINK_ExecCommand("DisableConnectionTimeout", ...).   returns 0x01 (0000ms, 1196ms total)
T2878 8563:089 JLINK_GetHardwareVersion()  returns 0x11170 (0000ms, 1196ms total)
T2878 8563:089 JLINK_GetDLLVersion()  returns 64600 (0000ms, 1196ms total)
T2878 8563:089 JLINK_GetFirmwareString(...) (0000ms, 1196ms total)
T2878 8563:092 JLINK_GetDLLVersion()  returns 64600 (0000ms, 1196ms total)
T2878 8563:092 JLINK_GetCompileDateTime() (0000ms, 1196ms total)
T2878 8563:093 JLINK_GetFirmwareString(...) (0000ms, 1196ms total)
T2878 8563:094 JLINK_GetHardwareVersion()  returns 0x11170 (0000ms, 1196ms total)
T2878 8563:098 JLINK_TIF_Select(JLINKARM_TIF_SWD)  returns 0x00 (0000ms, 1196ms total)
T2878 8563:098 JLINK_SetSpeed(5000) (0001ms, 1197ms total)
T2878 8563:099 JLINK_GetId() >0x10B TIF>Found SW-DP with ID 0x2BA01477 >0x0D TIF> >0x28 TIF> >0x0D TIF> >0x28 TIF> >0x0D TIF> >0x28 TIF> >0x0D TIF> >0x28 TIF> >0x0D TIF> >0x21 TIF> >0x0D TIF> >0x28 TIF> >0x0D TIF> >0x28 TIF> >0x0D TIF> >0x28 TIF> >0x0D TIF> >0x21 TIF> >0x0D TIF> >0x21 TIF> >0x0D TIF> >0x28 TIF> >0x0D TIF> >0x21 TIF> >0x0D TIF> >0x21 TIF> >0x0D TIF> >0x28 TIF> >0x0D TIF> >0x21 TIF> >0x0D TIF> >0x21 TIF> >0x0D TIF> >0x28 TIF> >0x0D TIF> >0x21 TIF> >0x0D TIF> >0x21 TIF> >0x0D TIF>
 >0x28 TIF> >0x0D TIF> >0x21 TIF> >0x0D TIF> >0x21 TIF> >0x0D TIF> >0x28 TIF> >0x0D TIF> >0x21 TIF> >0x0D TIF> >0x21 TIF> >0x10B TIF>Found SW-DP with ID 0x2BA01477 >0x0D TIF> >0x28 TIF> >0x0D TIF> >0x28 TIF> >0x0D TIF> >0x28 TIF> >0x0D TIF> >0x28 TIF> >0x0D TIF> >0x21 TIF> >0x0D TIF> >0x28 TIF>Scanning AP map to find all available APs >0x0D TIF> >0x28 TIF> >0x0D TIF> >0x21 TIF> >0x0D TIF> >0x21 TIF> >0x0D TIF> >0x28 TIF> >0x0D TIF> >0x21 TIF> >0x0D TIF> >0x21 TIF>
AP[1]: Stopped AP scan as end of AP map has been reachedAP[0]: AHB-AP (IDR: 0x24770011)Iterating through AP map to find AHB-AP to use >0x42 TIF> >0x28 TIF> >0x0D TIF> >0x28 TIF> >0x0D TIF> >0x21 TIF> >0x0D TIF> >0x21 TIF> >0x42 TIF> >0x28 TIF> >0x0D TIF> >0x28 TIF> >0x0D TIF> >0x28 TIF> >0x0D TIF> >0x21 TIF> >0x0D TIF> >0x21 TIF>AP[0]: Core foundAP[0]: AHB-AP ROM base: 0xE00FF000 >0x0D TIF> >0x28 TIF> >0x0D TIF> >0x28 TIF> >0x0D TIF> >0x28 TIF> >0x0D TIF> >0x21 TIF> >0x0D TIF> >0x21 TIF>
CPUID register: 0x410FC241. Implementer code: 0x41 (ARM)Found Cortex-M4 r0p1, Little endian. -- Max. mem block: 0x00002C18 -- CPU_ReadMem(4 bytes @ 0xE000EDF0) -- CPU_WriteMem(4 bytes @ 0xE000EDF0) -- CPU_ReadMem(4 bytes @ 0xE0002000)FPUnit: 6 code (BP) slots and 2 literal slots -- CPU_ReadMem(4 bytes @ 0xE000EDFC) -- CPU_WriteMem(4 bytes @ 0xE000EDFC) -- CPU_ReadMem(4 bytes @ 0xE0001000) -- CPU_WriteMem(4 bytes @ 0xE0001000) -- CPU_ReadMem(4 bytes @ 0xE000ED88) -- CPU_WriteMem(4 bytes @ 0xE000ED88)
 -- CPU_ReadMem(4 bytes @ 0xE000ED88) -- CPU_WriteMem(4 bytes @ 0xE000ED88)CoreSight components:ROMTbl[0] @ E00FF000 -- CPU_ReadMem(16 bytes @ 0xE00FF000) -- CPU_ReadMem(16 bytes @ 0xE000EFF0) -- CPU_ReadMem(16 bytes @ 0xE000EFE0)ROMTbl[0][0]: E000E000, CID: B105E00D, PID: 000BB00C SCS-M7 -- CPU_ReadMem(16 bytes @ 0xE0001FF0) -- CPU_ReadMem(16 bytes @ 0xE0001FE0)ROMTbl[0][1]: E0001000, CID: B105E00D, PID: 003BB002 DWT -- CPU_ReadMem(16 bytes @ 0xE0002FF0) -- CPU_ReadMem(16 bytes @ 0xE0002FE0)
ROMTbl[0][2]: E0002000, CID: B105E00D, PID: 002BB003 FPB -- CPU_ReadMem(16 bytes @ 0xE0000FF0) -- CPU_ReadMem(16 bytes @ 0xE0000FE0)ROMTbl[0][3]: E0000000, CID: B105E00D, PID: 003BB001 ITM -- CPU_ReadMem(16 bytes @ 0xE00FF010) -- CPU_ReadMem(16 bytes @ 0xE0040FF0) -- CPU_ReadMem(16 bytes @ 0xE0040FE0)ROMTbl[0][4]: E0040000, CID: B105900D, PID: 000BB9A1 TPIU -- CPU_ReadMem(16 bytes @ 0xE0041FF0) -- CPU_ReadMem(16 bytes @ 0xE0041FE0)ROMTbl[0][5]: E0041000, CID: B105900D, PID: 000BB925 ETM >0x0D TIF>
 >0x21 TIF>  returns 0x2BA01477 (0158ms, 1355ms total)
T2878 8563:258 JLINK_GetDLLVersion()  returns 64600 (0000ms, 1355ms total)
T2878 8563:258 JLINK_CORE_GetFound()  returns 0xE0000FF (0000ms, 1355ms total)
T2878 8563:258 JLINK_GetDebugInfo(0x100 = JLINKARM_ROM_TABLE_ADDR_INDEX) -- Value=0xE00FF000  returns 0x00 (0000ms, 1355ms total)
T2878 8563:259 JLINK_GetDebugInfo(0x100 = JLINKARM_ROM_TABLE_ADDR_INDEX) -- Value=0xE00FF000  returns 0x00 (0000ms, 1355ms total)
T2878 8563:259 JLINK_GetDebugInfo(0x101 = JLINKARM_DEBUG_INFO_ETM_ADDR_INDEX) -- Value=0xE0041000  returns 0x00 (0000ms, 1355ms total)
T2878 8563:259 JLINK_ReadMemEx(0xE0041FD0, 0x0020 Bytes, ..., Flags = 0x02000004) -- CPU_ReadMem(32 bytes @ 0xE0041FD0) - Data: 04 00 00 00 00 00 00 00 00 00 00 00 00 00 00 00 ...  returns 0x20 (0000ms, 1355ms total)
T2878 8563:259 JLINK_GetDebugInfo(0x102 = JLINKARM_DEBUG_INFO_MTB_ADDR_INDEX) -- Value=0x00000000  returns 0x00 (0000ms, 1355ms total)
T2878 8563:259 JLINK_GetDebugInfo(0x103 = JLINKARM_DEBUG_INFO_TPIU_ADDR_INDEX) -- Value=0xE0040000  returns 0x00 (0000ms, 1355ms total)
T2878 8563:259 JLINK_GetDebugInfo(0x104 = JLINKARM_DEBUG_INFO_ITM_ADDR_INDEX) -- Value=0xE0000000  returns 0x00 (0000ms, 1355ms total)
T2878 8563:259 JLINK_GetDebugInfo(0x105 = JLINKARM_DEBUG_INFO_DWT_ADDR_INDEX) -- Value=0xE0001000  returns 0x00 (0000ms, 1355ms total)
T2878 8563:259 JLINK_GetDebugInfo(0x106 = JLINKARM_DEBUG_INFO_FPB_ADDR_INDEX) -- Value=0xE0002000  returns 0x00 (0000ms, 1355ms total)
T2878 8563:259 JLINK_GetDebugInfo(0x107 = JLINKARM_DEBUG_INFO_NVIC_ADDR_INDEX) -- Value=0xE000E000  returns 0x00 (0000ms, 1355ms total)
T2878 8563:259 JLINK_GetDebugInfo(0x10C = JLINKARM_DEBUG_INFO_DBG_ADDR_INDEX) -- Value=0xE000EDF0  returns 0x00 (0000ms, 1355ms total)
T2878 8563:259 JLINK_GetDebugInfo(0x01 = Unknown) -- Value=0x00000001  returns 0x00 (0000ms, 1355ms total)
T2878 8563:259 JLINK_ReadMemU32(0xE000ED00, 0x0001 Items, ...) -- CPU_ReadMem(4 bytes @ 0xE000ED00) - Data: 41 C2 0F 41  returns 1 (0001ms, 1356ms total)
T2878 8563:260 JLINK_GetDebugInfo(0x10F = JLINKARM_DEBUG_INFO_HAS_CORTEX_M_SECURITY_EXT_INDEX) -- Value=0x00000000  returns 0x00 (0000ms, 1356ms total)
T2878 8563:260 JLINK_SetResetType(JLINKARM_CM3_RESET_TYPE_NORMAL)  returns JLINKARM_CM3_RESET_TYPE_NORMAL (0000ms, 1356ms total)
T2878 8563:260 JLINK_Reset() -- CPU is running -- CPU_WriteMem(4 bytes @ 0xE000EDF0) -- CPU is running -- CPU_WriteMem(4 bytes @ 0xE000EDFC)Reset: Halt core after reset via DEMCR.VC_CORERESET. >0x35 TIF>Reset: Reset device via AIRCR.SYSRESETREQ. -- CPU is running -- CPU_WriteMem(4 bytes @ 0xE000ED0C) >0x0D TIF> >0x28 TIF> -- CPU_ReadMem(4 bytes @ 0xE000EDF0) -- CPU_ReadMem(4 bytes @ 0xE000EDF0) -- CPU is running -- CPU_WriteMem(4 bytes @ 0xE000EDF0) -- CPU is running -- CPU_WriteMem(4 bytes @ 0xE000EDFC)
 -- CPU_ReadMem(4 bytes @ 0xE000EDF0) -- CPU_WriteMem(4 bytes @ 0xE0002000) -- CPU_ReadMem(4 bytes @ 0xE000EDFC) -- CPU_ReadMem(4 bytes @ 0xE0001000) (0069ms, 1425ms total)
T2878 8563:329 JLINK_Halt()  returns 0x00 (0000ms, 1425ms total)
T2878 8563:329 JLINK_ReadMemU32(0xE000EDF0, 0x0001 Items, ...) -- CPU_ReadMem(4 bytes @ 0xE000EDF0) - Data: 03 00 03 00  returns 1 (0000ms, 1425ms total)
T2878 8563:329 JLINK_WriteU32(0xE000EDF0, 0xA05F0003) -- CPU_WriteMem(4 bytes @ 0xE000EDF0)  returns 0 (0001ms, 1426ms total)
T2878 8563:330 JLINK_WriteU32(0xE000EDFC, 0x01000000) -- CPU_WriteMem(4 bytes @ 0xE000EDFC)  returns 0 (0000ms, 1426ms total)
T2878 8563:334 JLINK_GetHWStatus(...)  returns 0x00 (0000ms, 1426ms total)
T2878 8563:336 JLINK_GetNumBPUnits(Type = 0xFFFFFF00)  returns 0x06 (0000ms, 1426ms total)
T2878 8563:336 JLINK_GetNumBPUnits(Type = 0xF0)  returns 0x2000 (0000ms, 1426ms total)
T2878 8563:336 JLINK_GetNumWPUnits()  returns 0x04 (0000ms, 1426ms total)
T2878 8563:339 JLINK_GetSpeed()  returns 0xFA0 (0000ms, 1426ms total)
T2878 8563:340 JLINK_ReadMemU32(0xE000E004, 0x0001 Items, ...) -- CPU_ReadMem(4 bytes @ 0xE000E004) - Data: 02 00 00 00  returns 1 (0001ms, 1427ms total)
T2878 8563:341 JLINK_ReadMemU32(0xE000E004, 0x0001 Items, ...) -- CPU_ReadMem(4 bytes @ 0xE000E004) - Data: 02 00 00 00  returns 1 (0000ms, 1427ms total)
T2878 8563:341 JLINK_WriteMemEx(0xE0001000, 0x001C Bytes, ..., Flags = 0x02000004) - Data: 01 00 00 00 00 00 00 00 00 00 00 00 00 00 00 00 ... -- CPU_WriteMem(28 bytes @ 0xE0001000)  returns 0x1C (0001ms, 1428ms total)
T2878 8563:342 JLINK_Halt()  returns 0x00 (0000ms, 1428ms total)
T2878 8563:342 JLINK_IsHalted()  returns TRUE (0000ms, 1428ms total)
T2878 8563:344 JLINK_WriteMem(0x20000000, 0x0188 Bytes, ...) - Data: 00 BE 0A E0 0D 78 2D 06 68 40 08 24 40 00 00 D3 ... -- CPU_WriteMem(392 bytes @ 0x20000000)  returns 0x188 (0006ms, 1434ms total)
T2878 8563:350 JLINK_WriteReg(R0, 0x08000000)  returns 0x00 (0000ms, 1434ms total)
T2878 8563:350 JLINK_WriteReg(R1, 0x00F42400)  returns 0x00 (0000ms, 1434ms total)
T2878 8563:350 JLINK_WriteReg(R2, 0x00000001)  returns 0x00 (0000ms, 1434ms total)
T2878 8563:350 JLINK_WriteReg(R3, 0x00000000)  returns 0x00 (0000ms, 1434ms total)
T2878 8563:350 JLINK_WriteReg(R4, 0x00000000)  returns 0x00 (0000ms, 1434ms total)
T2878 8563:350 JLINK_WriteReg(R5, 0x00000000)  returns 0x00 (0000ms, 1434ms total)
T2878 8563:350 JLINK_WriteReg(R6, 0x00000000)  returns 0x00 (0000ms, 1434ms total)
T2878 8563:350 JLINK_WriteReg(R7, 0x00000000)  returns 0x00 (0000ms, 1434ms total)
T2878 8563:350 JLINK_WriteReg(R8, 0x00000000)  returns 0x00 (0000ms, 1434ms total)
T2878 8563:350 JLINK_WriteReg(R9, 0x20000184)  returns 0x00 (0000ms, 1434ms total)
T2878 8563:350 JLINK_WriteReg(R10, 0x00000000)  returns 0x00 (0000ms, 1434ms total)
T2878 8563:350 JLINK_WriteReg(R11, 0x00000000)  returns 0x00 (0000ms, 1434ms total)
T2878 8563:350 JLINK_WriteReg(R12, 0x00000000)  returns 0x00 (0000ms, 1434ms total)
T2878 8563:350 JLINK_WriteReg(R13 (SP), 0x20001000)  returns 0x00 (0000ms, 1434ms total)
T2878 8563:350 JLINK_WriteReg(R14, 0x20000001)  returns 0x00 (0000ms, 1434ms total)
T2878 8563:350 JLINK_WriteReg(R15 (PC), 0x2000005E)  returns 0x00 (0000ms, 1434ms total)
T2878 8563:350 JLINK_WriteReg(XPSR, 0x01000000)  returns 0x00 (0000ms, 1434ms total)
T2878 8563:350 JLINK_WriteReg(MSP, 0x20001000)  returns 0x00 (0000ms, 1434ms total)
T2878 8563:350 JLINK_WriteReg(PSP, 0x20001000)  returns 0x00 (0000ms, 1434ms total)
T2878 8563:350 JLINK_WriteReg(CFBP, 0x00000000)  returns 0x00 (0000ms, 1434ms total)
T2878 8563:350 JLINK_SetBPEx(Addr = 0x20000000, Type = 0xFFFFFFF2) -- CPU_ReadMem(2 bytes @ 0x20000000)  returns 0x00000001 (0001ms, 1435ms total)
T2878 8563:351 JLINK_Go() -- CPU_WriteMem(2 bytes @ 0x20000000) -- CPU_ReadMem(4 bytes @ 0xE0001000) -- CPU_WriteMem(4 bytes @ 0xE0002008) -- CPU_WriteMem(4 bytes @ 0xE000200C) -- CPU_WriteMem(4 bytes @ 0xE0002010) -- CPU_WriteMem(4 bytes @ 0xE0002014) -- CPU_WriteMem(4 bytes @ 0xE0002018) -- CPU_WriteMem(4 bytes @ 0xE000201C) -- CPU_WriteMem(4 bytes @ 0xE0001004) (0007ms, 1442ms total)
T2878 8563:358 JLINK_IsHalted() -- CPU_ReadMem(2 bytes @ 0x20000000)  returns TRUE (0003ms, 1445ms total)
T2878 8563:361 JLINK_ReadReg(R15 (PC))  returns 0x20000000 (0000ms, 1442ms total)
T2878 8563:361 JLINK_ClrBPEx(BPHandle = 0x00000001)  returns 0x00 (0000ms, 1442ms total)
T2878 8563:361 JLINK_ReadReg(R0)  returns 0x00000000 (0000ms, 1442ms total)
T2878 8563:362 JLINK_WriteReg(R0, 0x08000000)  returns 0x00 (0000ms, 1442ms total)
T2878 8563:362 JLINK_WriteReg(R1, 0x00004000)  returns 0x00 (0000ms, 1442ms total)
T2878 8563:362 JLINK_WriteReg(R2, 0x000000FF)  returns 0x00 (0000ms, 1442ms total)
T2878 8563:362 JLINK_WriteReg(R3, 0x00000000)  returns 0x00 (0000ms, 1442ms total)
T2878 8563:362 JLINK_WriteReg(R4, 0x00000000)  returns 0x00 (0000ms, 1442ms total)
T2878 8563:362 JLINK_WriteReg(R5, 0x00000000)  returns 0x00 (0000ms, 1442ms total)
T2878 8563:362 JLINK_WriteReg(R6, 0x00000000)  returns 0x00 (0000ms, 1442ms total)
T2878 8563:362 JLINK_WriteReg(R7, 0x00000000)  returns 0x00 (0000ms, 1442ms total)
T2878 8563:362 JLINK_WriteReg(R8, 0x00000000)  returns 0x00 (0000ms, 1442ms total)
T2878 8563:362 JLINK_WriteReg(R9, 0x20000184)  returns 0x00 (0000ms, 1442ms total)
T2878 8563:362 JLINK_WriteReg(R10, 0x00000000)  returns 0x00 (0000ms, 1442ms total)
T2878 8563:362 JLINK_WriteReg(R11, 0x00000000)  returns 0x00 (0000ms, 1442ms total)
T2878 8563:362 JLINK_WriteReg(R12, 0x00000000)  returns 0x00 (0000ms, 1442ms total)
T2878 8563:362 JLINK_WriteReg(R13 (SP), 0x20001000)  returns 0x00 (0000ms, 1442ms total)
T2878 8563:362 JLINK_WriteReg(R14, 0x20000001)  returns 0x00 (0000ms, 1442ms total)
T2878 8563:362 JLINK_WriteReg(R15 (PC), 0x20000020)  returns 0x00 (0000ms, 1442ms total)
T2878 8563:362 JLINK_WriteReg(XPSR, 0x01000000)  returns 0x00 (0000ms, 1442ms total)
T2878 8563:362 JLINK_WriteReg(MSP, 0x20001000)  returns 0x00 (0000ms, 1442ms total)
T2878 8563:362 JLINK_WriteReg(PSP, 0x20001000)  returns 0x00 (0000ms, 1442ms total)
T2878 8563:362 JLINK_WriteReg(CFBP, 0x00000000)  returns 0x00 (0000ms, 1442ms total)
T2878 8563:362 JLINK_SetBPEx(Addr = 0x20000000, Type = 0xFFFFFFF2)  returns 0x00000002 (0000ms, 1442ms total)
T2878 8563:362 JLINK_Go() -- CPU_ReadMem(4 bytes @ 0xE0001000) (0004ms, 1446ms total)
T2878 8563:366 JLINK_IsHalted() -- CPU_ReadMem(2 bytes @ 0x20000000)  returns TRUE (0003ms, 1449ms total)
T2878 8563:369 JLINK_ReadReg(R15 (PC))  returns 0x20000000 (0000ms, 1446ms total)
T2878 8563:369 JLINK_ClrBPEx(BPHandle = 0x00000002)  returns 0x00 (0000ms, 1446ms total)
T2878 8563:369 JLINK_ReadReg(R0)  returns 0x00000001 (0000ms, 1446ms total)
T2878 8563:369 JLINK_WriteReg(R0, 0x08000000)  returns 0x00 (0000ms, 1446ms total)
T2878 8563:369 JLINK_WriteReg(R1, 0x00004000)  returns 0x00 (0000ms, 1446ms total)
T2878 8563:369 JLINK_WriteReg(R2, 0x000000FF)  returns 0x00 (0000ms, 1446ms total)
T2878 8563:369 JLINK_WriteReg(R3, 0x00000000)  returns 0x00 (0000ms, 1446ms total)
T2878 8563:369 JLINK_WriteReg(R4, 0x00000000)  returns 0x00 (0001ms, 1447ms total)
T2878 8563:370 JLINK_WriteReg(R5, 0x00000000)  returns 0x00 (0000ms, 1447ms total)
T2878 8563:370 JLINK_WriteReg(R6, 0x00000000)  returns 0x00 (0000ms, 1447ms total)
T2878 8563:370 JLINK_WriteReg(R7, 0x00000000)  returns 0x00 (0000ms, 1447ms total)
T2878 8563:370 JLINK_WriteReg(R8, 0x00000000)  returns 0x00 (0000ms, 1447ms total)
T2878 8563:370 JLINK_WriteReg(R9, 0x20000184)  returns 0x00 (0000ms, 1447ms total)
T2878 8563:370 JLINK_WriteReg(R10, 0x00000000)  returns 0x00 (0000ms, 1447ms total)
T2878 8563:370 JLINK_WriteReg(R11, 0x00000000)  returns 0x00 (0000ms, 1447ms total)
T2878 8563:370 JLINK_WriteReg(R12, 0x00000000)  returns 0x00 (0000ms, 1447ms total)
T2878 8563:370 JLINK_WriteReg(R13 (SP), 0x20001000)  returns 0x00 (0000ms, 1447ms total)
T2878 8563:370 JLINK_WriteReg(R14, 0x20000001)  returns 0x00 (0000ms, 1447ms total)
T2878 8563:370 JLINK_WriteReg(R15 (PC), 0x200000C6)  returns 0x00 (0000ms, 1447ms total)
T2878 8563:370 JLINK_WriteReg(XPSR, 0x01000000)  returns 0x00 (0000ms, 1447ms total)
T2878 8563:370 JLINK_WriteReg(MSP, 0x20001000)  returns 0x00 (0000ms, 1447ms total)
T2878 8563:370 JLINK_WriteReg(PSP, 0x20001000)  returns 0x00 (0000ms, 1447ms total)
T2878 8563:370 JLINK_WriteReg(CFBP, 0x00000000)  returns 0x00 (0000ms, 1447ms total)
T2878 8563:370 JLINK_SetBPEx(Addr = 0x20000000, Type = 0xFFFFFFF2)  returns 0x00000003 (0000ms, 1447ms total)
T2878 8563:370 JLINK_Go() -- CPU_ReadMem(4 bytes @ 0xE0001000) (0003ms, 1450ms total)
T2878 8563:373 JLINK_IsHalted()  returns FALSE (0001ms, 1451ms total)
T2878 8563:398 JLINK_IsHalted()  returns FALSE (0000ms, 1450ms total)
T2878 8563:400 JLINK_IsHalted()  returns FALSE (0000ms, 1450ms total)
T2878 8563:402 JLINK_IsHalted()  returns FALSE (0000ms, 1450ms total)
T2878 8563:404 JLINK_IsHalted()  returns FALSE (0000ms, 1450ms total)
T2878 8563:406 JLINK_IsHalted()  returns FALSE (0000ms, 1450ms total)
T2878 8563:409 JLINK_IsHalted()  returns FALSE (0000ms, 1450ms total)
T2878 8563:411 JLINK_IsHalted()  returns FALSE (0000ms, 1450ms total)
T2878 8563:413 JLINK_IsHalted()  returns FALSE (0000ms, 1450ms total)
T2878 8563:416 JLINK_IsHalted()  returns FALSE (0000ms, 1450ms total)
T2878 8563:418 JLINK_IsHalted()  returns FALSE (0000ms, 1450ms total)
T2878 8563:420 JLINK_IsHalted()  returns FALSE (0000ms, 1450ms total)
T2878 8563:422 JLINK_IsHalted()  returns FALSE (0000ms, 1450ms total)
T2878 8563:426 JLINK_IsHalted()  returns FALSE (0000ms, 1450ms total)
T2878 8563:428 JLINK_IsHalted()  returns FALSE (0000ms, 1450ms total)
T2878 8563:430 JLINK_IsHalted()  returns FALSE (0000ms, 1450ms total)
T2878 8563:433 JLINK_IsHalted()  returns FALSE (0000ms, 1450ms total)
T2878 8563:435 JLINK_IsHalted()  returns FALSE (0000ms, 1450ms total)
T2878 8563:437 JLINK_IsHalted()  returns FALSE (0000ms, 1450ms total)
T2878 8563:440 JLINK_IsHalted()  returns FALSE (0000ms, 1450ms total)
T2878 8563:442 JLINK_IsHalted()  returns FALSE (0000ms, 1450ms total)
T2878 8563:444 JLINK_IsHalted()  returns FALSE (0000ms, 1450ms total)
T2878 8563:446 JLINK_IsHalted()  returns FALSE (0000ms, 1450ms total)
T2878 8563:449 JLINK_IsHalted()  returns FALSE (0000ms, 1450ms total)
T2878 8563:451 JLINK_IsHalted()  returns FALSE (0000ms, 1450ms total)
T2878 8563:453 JLINK_IsHalted()  returns FALSE (0000ms, 1450ms total)
T2878 8563:456 JLINK_IsHalted()  returns FALSE (0000ms, 1450ms total)
T2878 8563:458 JLINK_IsHalted()  returns FALSE (0000ms, 1450ms total)
T2878 8563:460 JLINK_IsHalted()  returns FALSE (0000ms, 1450ms total)
T2878 8563:463 JLINK_IsHalted()  returns FALSE (0000ms, 1450ms total)
T2878 8563:465 JLINK_IsHalted()  returns FALSE (0000ms, 1450ms total)
T2878 8563:467 JLINK_IsHalted()  returns FALSE (0000ms, 1450ms total)
T2878 8563:469 JLINK_IsHalted()  returns FALSE (0000ms, 1450ms total)
T2878 8563:472 JLINK_IsHalted()  returns FALSE (0000ms, 1450ms total)
T2878 8563:474 JLINK_IsHalted()  returns FALSE (0000ms, 1450ms total)
T2878 8563:476 JLINK_IsHalted()  returns FALSE (0000ms, 1450ms total)
T2878 8563:479 JLINK_IsHalted()  returns FALSE (0000ms, 1450ms total)
T2878 8563:481 JLINK_IsHalted()  returns FALSE (0000ms, 1450ms total)
T2878 8563:483 JLINK_IsHalted()  returns FALSE (0000ms, 1450ms total)
T2878 8563:485 JLINK_IsHalted()  returns FALSE (0000ms, 1450ms total)
T2878 8563:488 JLINK_IsHalted()  returns FALSE (0000ms, 1450ms total)
T2878 8563:490 JLINK_IsHalted()  returns FALSE (0000ms, 1450ms total)
T2878 8563:492 JLINK_IsHalted()  returns FALSE (0000ms, 1450ms total)
T2878 8563:494 JLINK_IsHalted()  returns FALSE (0000ms, 1450ms total)
T2878 8563:496 JLINK_IsHalted()  returns FALSE (0000ms, 1450ms total)
T2878 8563:498 JLINK_IsHalted()  returns FALSE (0000ms, 1450ms total)
T2878 8563:500 JLINK_IsHalted()  returns FALSE (0000ms, 1450ms total)
T2878 8563:503 JLINK_IsHalted()  returns FALSE (0000ms, 1450ms total)
T2878 8563:505 JLINK_IsHalted()  returns FALSE (0000ms, 1450ms total)
T2878 8563:507 JLINK_IsHalted()  returns FALSE (0000ms, 1450ms total)
T2878 8563:509 JLINK_IsHalted()  returns FALSE (0000ms, 1450ms total)
T2878 8563:512 JLINK_IsHalted()  returns FALSE (0000ms, 1450ms total)
T2878 8563:514 JLINK_IsHalted()  returns FALSE (0000ms, 1450ms total)
T2878 8563:516 JLINK_IsHalted()  returns FALSE (0000ms, 1450ms total)
T2878 8563:520 JLINK_IsHalted()  returns FALSE (0000ms, 1450ms total)
T2878 8563:522 JLINK_IsHalted()  returns FALSE (0000ms, 1450ms total)
T2878 8563:524 JLINK_IsHalted()  returns FALSE (0000ms, 1450ms total)
T2878 8563:527 JLINK_IsHalted()  returns FALSE (0000ms, 1450ms total)
T2878 8563:529 JLINK_IsHalted()  returns FALSE (0000ms, 1450ms total)
T2878 8563:531 JLINK_IsHalted()  returns FALSE (0000ms, 1450ms total)
T2878 8563:534 JLINK_IsHalted()  returns FALSE (0000ms, 1450ms total)
T2878 8563:536 JLINK_IsHalted()  returns FALSE (0000ms, 1450ms total)
T2878 8563:538 JLINK_IsHalted()  returns FALSE (0000ms, 1450ms total)
T2878 8563:540 JLINK_IsHalted()  returns FALSE (0000ms, 1450ms total)
T2878 8563:543 JLINK_IsHalted()  returns FALSE (0000ms, 1450ms total)
T2878 8563:545 JLINK_IsHalted()  returns FALSE (0000ms, 1450ms total)
T2878 8563:547 JLINK_IsHalted()  returns FALSE (0000ms, 1450ms total)
T2878 8563:550 JLINK_IsHalted()  returns FALSE (0000ms, 1450ms total)
T2878 8563:552 JLINK_IsHalted()  returns FALSE (0000ms, 1450ms total)
T2878 8563:554 JLINK_IsHalted()  returns FALSE (0000ms, 1450ms total)
T2878 8563:556 JLINK_IsHalted()  returns FALSE (0000ms, 1450ms total)
T2878 8563:558 JLINK_IsHalted()  returns FALSE (0000ms, 1450ms total)
T2878 8563:560 JLINK_IsHalted()  returns FALSE (0000ms, 1450ms total)
T2878 8563:562 JLINK_IsHalted()  returns FALSE (0000ms, 1450ms total)
T2878 8563:564 JLINK_IsHalted()  returns FALSE (0000ms, 1450ms total)
T2878 8563:566 JLINK_IsHalted()  returns FALSE (0000ms, 1450ms total)
T2878 8563:568 JLINK_IsHalted()  returns FALSE (0000ms, 1450ms total)
T2878 8563:570 JLINK_IsHalted()  returns FALSE (0000ms, 1450ms total)
T2878 8563:572 JLINK_IsHalted()  returns FALSE (0000ms, 1450ms total)
T2878 8563:574 JLINK_IsHalted()  returns FALSE (0000ms, 1450ms total)
T2878 8563:576 JLINK_IsHalted()  returns FALSE (0000ms, 1450ms total)
T2878 8563:578 JLINK_IsHalted()  returns FALSE (0000ms, 1450ms total)
T2878 8563:580 JLINK_IsHalted()  returns FALSE (0000ms, 1450ms total)
T2878 8563:582 JLINK_IsHalted()  returns FALSE (0000ms, 1450ms total)
T2878 8563:584 JLINK_IsHalted()  returns FALSE (0000ms, 1450ms total)
T2878 8563:586 JLINK_IsHalted()  returns FALSE (0000ms, 1450ms total)
T2878 8563:588 JLINK_IsHalted()  returns FALSE (0000ms, 1450ms total)
T2878 8563:590 JLINK_IsHalted()  returns FALSE (0000ms, 1450ms total)
T2878 8563:592 JLINK_IsHalted()  returns FALSE (0000ms, 1450ms total)
T2878 8563:594 JLINK_IsHalted()  returns FALSE (0000ms, 1450ms total)
T2878 8563:596 JLINK_IsHalted()  returns FALSE (0000ms, 1450ms total)
T2878 8563:597 JLINK_IsHalted()  returns FALSE (0000ms, 1450ms total)
T2878 8563:599 JLINK_IsHalted()  returns FALSE (0000ms, 1450ms total)
T2878 8563:601 JLINK_IsHalted()  returns FALSE (0000ms, 1450ms total)
T2878 8563:603 JLINK_IsHalted()  returns FALSE (0000ms, 1450ms total)
T2878 8563:605 JLINK_IsHalted()  returns FALSE (0000ms, 1450ms total)
T2878 8563:607 JLINK_IsHalted()  returns FALSE (0000ms, 1450ms total)
T2878 8563:609 JLINK_IsHalted()  returns FALSE (0000ms, 1450ms total)
T2878 8563:611 JLINK_IsHalted()  returns FALSE (0000ms, 1450ms total)
T2878 8563:613 JLINK_IsHalted()  returns FALSE (0000ms, 1450ms total)
T2878 8563:615 JLINK_IsHalted()  returns FALSE (0000ms, 1450ms total)
T2878 8563:617 JLINK_IsHalted()  returns FALSE (0000ms, 1450ms total)
T2878 8563:619 JLINK_IsHalted()  returns FALSE (0000ms, 1450ms total)
T2878 8563:621 JLINK_IsHalted()  returns FALSE (0000ms, 1450ms total)
T2878 8563:623 JLINK_IsHalted()  returns FALSE (0000ms, 1450ms total)
T2878 8563:625 JLINK_IsHalted()  returns FALSE (0000ms, 1450ms total)
T2878 8563:627 JLINK_IsHalted()  returns FALSE (0000ms, 1450ms total)
T2878 8563:629 JLINK_IsHalted()  returns FALSE (0000ms, 1450ms total)
T2878 8563:631 JLINK_IsHalted()  returns FALSE (0000ms, 1450ms total)
T2878 8563:633 JLINK_IsHalted()  returns FALSE (0000ms, 1450ms total)
T2878 8563:635 JLINK_IsHalted()  returns FALSE (0000ms, 1450ms total)
T2878 8563:637 JLINK_IsHalted()  returns FALSE (0000ms, 1450ms total)
T2878 8563:639 JLINK_IsHalted()  returns FALSE (0000ms, 1450ms total)
T2878 8563:642 JLINK_IsHalted()  returns FALSE (0000ms, 1450ms total)
T2878 8563:644 JLINK_IsHalted()  returns FALSE (0000ms, 1450ms total)
T2878 8563:646 JLINK_IsHalted()  returns FALSE (0000ms, 1450ms total)
T2878 8563:648 JLINK_IsHalted()  returns FALSE (0000ms, 1450ms total)
T2878 8563:650 JLINK_IsHalted()  returns FALSE (0000ms, 1450ms total)
T2878 8563:652 JLINK_IsHalted()  returns FALSE (0000ms, 1450ms total)
T2878 8563:654 JLINK_IsHalted()  returns FALSE (0000ms, 1450ms total)
T2878 8563:656 JLINK_IsHalted()  returns FALSE (0000ms, 1450ms total)
T2878 8563:658 JLINK_IsHalted()  returns FALSE (0000ms, 1450ms total)
T2878 8563:660 JLINK_IsHalted()  returns FALSE (0000ms, 1450ms total)
T2878 8563:662 JLINK_IsHalted()  returns FALSE (0000ms, 1450ms total)
T2878 8563:664 JLINK_IsHalted()  returns FALSE (0000ms, 1450ms total)
T2878 8563:666 JLINK_IsHalted()  returns FALSE (0000ms, 1450ms total)
T2878 8563:668 JLINK_IsHalted()  returns FALSE (0000ms, 1450ms total)
T2878 8563:670 JLINK_IsHalted()  returns FALSE (0000ms, 1450ms total)
T2878 8563:672 JLINK_IsHalted()  returns FALSE (0000ms, 1450ms total)
T2878 8563:674 JLINK_IsHalted()  returns FALSE (0000ms, 1450ms total)
T2878 8563:676 JLINK_IsHalted()  returns FALSE (0000ms, 1450ms total)
T2878 8563:678 JLINK_IsHalted()  returns FALSE (0000ms, 1450ms total)
T2878 8563:680 JLINK_IsHalted()  returns FALSE (0000ms, 1450ms total)
T2878 8563:682 JLINK_IsHalted()  returns FALSE (0000ms, 1450ms total)
T2878 8563:684 JLINK_IsHalted()  returns FALSE (0000ms, 1450ms total)
T2878 8563:686 JLINK_IsHalted()  returns FALSE (0000ms, 1450ms total)
T2878 8563:688 JLINK_IsHalted()  returns FALSE (0000ms, 1450ms total)
T2878 8563:690 JLINK_IsHalted()  returns FALSE (0000ms, 1450ms total)
T2878 8563:692 JLINK_IsHalted()  returns FALSE (0000ms, 1450ms total)
T2878 8563:694 JLINK_IsHalted()  returns FALSE (0000ms, 1450ms total)
T2878 8563:696 JLINK_IsHalted()  returns FALSE (0000ms, 1450ms total)
T2878 8563:698 JLINK_IsHalted()  returns FALSE (0000ms, 1450ms total)
T2878 8563:700 JLINK_IsHalted()  returns FALSE (0000ms, 1450ms total)
T2878 8563:702 JLINK_IsHalted()  returns FALSE (0000ms, 1450ms total)
T2878 8563:704 JLINK_IsHalted()  returns FALSE (0000ms, 1450ms total)
T2878 8563:706 JLINK_IsHalted()  returns FALSE (0000ms, 1450ms total)
T2878 8563:708 JLINK_IsHalted()  returns FALSE (0000ms, 1450ms total)
T2878 8563:710 JLINK_IsHalted()  returns FALSE (0000ms, 1450ms total)
T2878 8563:712 JLINK_IsHalted()  returns FALSE (0000ms, 1450ms total)
T2878 8563:714 JLINK_IsHalted() -- CPU_ReadMem(2 bytes @ 0x20000000)  returns TRUE (0003ms, 1453ms total)
T2878 8563:717 JLINK_ReadReg(R15 (PC))  returns 0x20000000 (0000ms, 1450ms total)
T2878 8563:717 JLINK_ClrBPEx(BPHandle = 0x00000003)  returns 0x00 (0000ms, 1450ms total)
T2878 8563:717 JLINK_ReadReg(R0)  returns 0x00000000 (0000ms, 1450ms total)
T2878 8563:717 JLINK_WriteReg(R0, 0x00000001)  returns 0x00 (0001ms, 1451ms total)
T2878 8563:718 JLINK_WriteReg(R1, 0x00004000)  returns 0x00 (0000ms, 1451ms total)
T2878 8563:718 JLINK_WriteReg(R2, 0x000000FF)  returns 0x00 (0000ms, 1451ms total)
T2878 8563:718 JLINK_WriteReg(R3, 0x00000000)  returns 0x00 (0000ms, 1451ms total)
T2878 8563:718 JLINK_WriteReg(R4, 0x00000000)  returns 0x00 (0000ms, 1451ms total)
T2878 8563:718 JLINK_WriteReg(R5, 0x00000000)  returns 0x00 (0000ms, 1451ms total)
T2878 8563:718 JLINK_WriteReg(R6, 0x00000000)  returns 0x00 (0000ms, 1451ms total)
T2878 8563:718 JLINK_WriteReg(R7, 0x00000000)  returns 0x00 (0000ms, 1451ms total)
T2878 8563:718 JLINK_WriteReg(R8, 0x00000000)  returns 0x00 (0000ms, 1451ms total)
T2878 8563:718 JLINK_WriteReg(R9, 0x20000184)  returns 0x00 (0000ms, 1451ms total)
T2878 8563:718 JLINK_WriteReg(R10, 0x00000000)  returns 0x00 (0000ms, 1451ms total)
T2878 8563:718 JLINK_WriteReg(R11, 0x00000000)  returns 0x00 (0000ms, 1451ms total)
T2878 8563:718 JLINK_WriteReg(R12, 0x00000000)  returns 0x00 (0000ms, 1451ms total)
T2878 8563:718 JLINK_WriteReg(R13 (SP), 0x20001000)  returns 0x00 (0000ms, 1451ms total)
T2878 8563:718 JLINK_WriteReg(R14, 0x20000001)  returns 0x00 (0000ms, 1451ms total)
T2878 8563:718 JLINK_WriteReg(R15 (PC), 0x2000008C)  returns 0x00 (0000ms, 1451ms total)
T2878 8563:718 JLINK_WriteReg(XPSR, 0x01000000)  returns 0x00 (0000ms, 1451ms total)
T2878 8563:718 JLINK_WriteReg(MSP, 0x20001000)  returns 0x00 (0000ms, 1451ms total)
T2878 8563:718 JLINK_WriteReg(PSP, 0x20001000)  returns 0x00 (0000ms, 1451ms total)
T2878 8563:718 JLINK_WriteReg(CFBP, 0x00000000)  returns 0x00 (0000ms, 1451ms total)
T2878 8563:718 JLINK_SetBPEx(Addr = 0x20000000, Type = 0xFFFFFFF2)  returns 0x00000004 (0000ms, 1451ms total)
T2878 8563:718 JLINK_Go() -- CPU_ReadMem(4 bytes @ 0xE0001000) (0003ms, 1454ms total)
T2878 8563:721 JLINK_IsHalted() -- CPU_ReadMem(2 bytes @ 0x20000000)  returns TRUE (0004ms, 1458ms total)
T2878 8563:725 JLINK_ReadReg(R15 (PC))  returns 0x20000000 (0000ms, 1454ms total)
T2878 8563:725 JLINK_ClrBPEx(BPHandle = 0x00000004)  returns 0x00 (0000ms, 1454ms total)
T2878 8563:725 JLINK_ReadReg(R0)  returns 0x00000000 (0000ms, 1454ms total)
T2878 8563:779 JLINK_WriteMem(0x20000000, 0x0188 Bytes, ...) - Data: 00 BE 0A E0 0D 78 2D 06 68 40 08 24 40 00 00 D3 ... -- CPU_WriteMem(392 bytes @ 0x20000000)  returns 0x188 (0005ms, 1459ms total)
T2878 8563:784 JLINK_WriteReg(R0, 0x08000000)  returns 0x00 (0000ms, 1459ms total)
T2878 8563:784 JLINK_WriteReg(R1, 0x00F42400)  returns 0x00 (0000ms, 1459ms total)
T2878 8563:784 JLINK_WriteReg(R2, 0x00000002)  returns 0x00 (0000ms, 1459ms total)
T2878 8563:784 JLINK_WriteReg(R3, 0x00000000)  returns 0x00 (0000ms, 1459ms total)
T2878 8563:784 JLINK_WriteReg(R4, 0x00000000)  returns 0x00 (0000ms, 1459ms total)
T2878 8563:784 JLINK_WriteReg(R5, 0x00000000)  returns 0x00 (0000ms, 1459ms total)
T2878 8563:784 JLINK_WriteReg(R6, 0x00000000)  returns 0x00 (0000ms, 1459ms total)
T2878 8563:784 JLINK_WriteReg(R7, 0x00000000)  returns 0x00 (0000ms, 1459ms total)
T2878 8563:785 JLINK_WriteReg(R8, 0x00000000)  returns 0x00 (0000ms, 1459ms total)
T2878 8563:785 JLINK_WriteReg(R9, 0x20000184)  returns 0x00 (0000ms, 1459ms total)
T2878 8563:785 JLINK_WriteReg(R10, 0x00000000)  returns 0x00 (0000ms, 1459ms total)
T2878 8563:785 JLINK_WriteReg(R11, 0x00000000)  returns 0x00 (0000ms, 1459ms total)
T2878 8563:785 JLINK_WriteReg(R12, 0x00000000)  returns 0x00 (0000ms, 1459ms total)
T2878 8563:785 JLINK_WriteReg(R13 (SP), 0x20001000)  returns 0x00 (0000ms, 1459ms total)
T2878 8563:785 JLINK_WriteReg(R14, 0x20000001)  returns 0x00 (0000ms, 1459ms total)
T2878 8563:785 JLINK_WriteReg(R15 (PC), 0x2000005E)  returns 0x00 (0000ms, 1459ms total)
T2878 8563:785 JLINK_WriteReg(XPSR, 0x01000000)  returns 0x00 (0000ms, 1459ms total)
T2878 8563:785 JLINK_WriteReg(MSP, 0x20001000)  returns 0x00 (0000ms, 1459ms total)
T2878 8563:785 JLINK_WriteReg(PSP, 0x20001000)  returns 0x00 (0000ms, 1459ms total)
T2878 8563:785 JLINK_WriteReg(CFBP, 0x00000000)  returns 0x00 (0000ms, 1459ms total)
T2878 8563:785 JLINK_SetBPEx(Addr = 0x20000000, Type = 0xFFFFFFF2) -- CPU_ReadMem(2 bytes @ 0x20000000)  returns 0x00000005 (0000ms, 1459ms total)
T2878 8563:785 JLINK_Go() -- CPU_WriteMem(2 bytes @ 0x20000000) -- CPU_ReadMem(4 bytes @ 0xE0001000) (0005ms, 1464ms total)
T2878 8563:790 JLINK_IsHalted() -- CPU_ReadMem(2 bytes @ 0x20000000)  returns TRUE (0003ms, 1467ms total)
T2878 8563:793 JLINK_ReadReg(R15 (PC))  returns 0x20000000 (0000ms, 1464ms total)
T2878 8563:793 JLINK_ClrBPEx(BPHandle = 0x00000005)  returns 0x00 (0000ms, 1464ms total)
T2878 8563:793 JLINK_ReadReg(R0)  returns 0x00000000 (0000ms, 1464ms total)
T2878 8563:794 JLINK_WriteMem(0x20000188, 0x0278 Bytes, ...) - Data: 80 05 00 20 AD 01 00 08 21 13 00 08 1D 13 00 08 ... -- CPU_WriteMem(632 bytes @ 0x20000188)  returns 0x278 (0008ms, 1472ms total)
T2878 8563:802 JLINK_WriteMem(0x20000400, 0x0188 Bytes, ...) - Data: 20 3A 21 FA 02 F0 00 21 70 47 21 FA 02 F3 D0 40 ... -- CPU_WriteMem(392 bytes @ 0x20000400)  returns 0x188 (0005ms, 1477ms total)
T2878 8563:807 JLINK_WriteReg(R0, 0x08000000)  returns 0x00 (0000ms, 1477ms total)
T2878 8563:807 JLINK_WriteReg(R1, 0x00000400)  returns 0x00 (0000ms, 1477ms total)
T2878 8563:807 JLINK_WriteReg(R2, 0x20000188)  returns 0x00 (0000ms, 1477ms total)
T2878 8563:807 JLINK_WriteReg(R3, 0x00000000)  returns 0x00 (0000ms, 1477ms total)
T2878 8563:807 JLINK_WriteReg(R4, 0x00000000)  returns 0x00 (0000ms, 1477ms total)
T2878 8563:807 JLINK_WriteReg(R5, 0x00000000)  returns 0x00 (0000ms, 1477ms total)
T2878 8563:807 JLINK_WriteReg(R6, 0x00000000)  returns 0x00 (0000ms, 1477ms total)
T2878 8563:807 JLINK_WriteReg(R7, 0x00000000)  returns 0x00 (0000ms, 1477ms total)
T2878 8563:807 JLINK_WriteReg(R8, 0x00000000)  returns 0x00 (0000ms, 1477ms total)
T2878 8563:807 JLINK_WriteReg(R9, 0x20000184)  returns 0x00 (0000ms, 1477ms total)
T2878 8563:807 JLINK_WriteReg(R10, 0x00000000)  returns 0x00 (0000ms, 1477ms total)
T2878 8563:807 JLINK_WriteReg(R11, 0x00000000)  returns 0x00 (0000ms, 1477ms total)
T2878 8563:807 JLINK_WriteReg(R12, 0x00000000)  returns 0x00 (0000ms, 1477ms total)
T2878 8563:807 JLINK_WriteReg(R13 (SP), 0x20001000)  returns 0x00 (0000ms, 1477ms total)
T2878 8563:807 JLINK_WriteReg(R14, 0x20000001)  returns 0x00 (0000ms, 1477ms total)
T2878 8563:807 JLINK_WriteReg(R15 (PC), 0x20000112)  returns 0x00 (0000ms, 1477ms total)
T2878 8563:807 JLINK_WriteReg(XPSR, 0x01000000)  returns 0x00 (0000ms, 1477ms total)
T2878 8563:807 JLINK_WriteReg(MSP, 0x20001000)  returns 0x00 (0000ms, 1477ms total)
T2878 8563:807 JLINK_WriteReg(PSP, 0x20001000)  returns 0x00 (0000ms, 1477ms total)
T2878 8563:807 JLINK_WriteReg(CFBP, 0x00000000)  returns 0x00 (0000ms, 1477ms total)
T2878 8563:807 JLINK_SetBPEx(Addr = 0x20000000, Type = 0xFFFFFFF2)  returns 0x00000006 (0000ms, 1477ms total)
T2878 8563:807 JLINK_Go() -- CPU_ReadMem(4 bytes @ 0xE0001000) (0004ms, 1481ms total)
T2878 8563:811 JLINK_IsHalted()  returns FALSE (0000ms, 1481ms total)
T2878 8563:815 JLINK_IsHalted()  returns FALSE (0000ms, 1481ms total)
T2878 8563:817 JLINK_IsHalted() -- CPU_ReadMem(2 bytes @ 0x20000000)  returns TRUE (0003ms, 1484ms total)
T2878 8563:820 JLINK_ReadReg(R15 (PC))  returns 0x20000000 (0000ms, 1481ms total)
T2878 8563:820 JLINK_ClrBPEx(BPHandle = 0x00000006)  returns 0x00 (0000ms, 1481ms total)
T2878 8563:820 JLINK_ReadReg(R0)  returns 0x00000000 (0000ms, 1481ms total)
T2878 8563:821 JLINK_WriteMem(0x20000188, 0x0278 Bytes, ...) - Data: 09 06 04 D5 A8 60 60 6D 40 F0 02 00 60 65 94 F8 ... -- CPU_WriteMem(632 bytes @ 0x20000188)  returns 0x278 (0008ms, 1489ms total)
T2878 8563:829 JLINK_WriteMem(0x20000400, 0x0188 Bytes, ...) - Data: 01 68 41 F0 01 01 01 60 DC E7 00 00 2D E9 F8 4F ... -- CPU_WriteMem(392 bytes @ 0x20000400)  returns 0x188 (0005ms, 1494ms total)
T2878 8563:834 JLINK_WriteReg(R0, 0x08000400)  returns 0x00 (0000ms, 1494ms total)
T2878 8563:834 JLINK_WriteReg(R1, 0x00000400)  returns 0x00 (0000ms, 1494ms total)
T2878 8563:834 JLINK_WriteReg(R2, 0x20000188)  returns 0x00 (0000ms, 1494ms total)
T2878 8563:834 JLINK_WriteReg(R3, 0x00000000)  returns 0x00 (0000ms, 1494ms total)
T2878 8563:834 JLINK_WriteReg(R4, 0x00000000)  returns 0x00 (0000ms, 1494ms total)
T2878 8563:834 JLINK_WriteReg(R5, 0x00000000)  returns 0x00 (0000ms, 1494ms total)
T2878 8563:834 JLINK_WriteReg(R6, 0x00000000)  returns 0x00 (0000ms, 1494ms total)
T2878 8563:834 JLINK_WriteReg(R7, 0x00000000)  returns 0x00 (0000ms, 1494ms total)
T2878 8563:834 JLINK_WriteReg(R8, 0x00000000)  returns 0x00 (0000ms, 1494ms total)
T2878 8563:834 JLINK_WriteReg(R9, 0x20000184)  returns 0x00 (0000ms, 1494ms total)
T2878 8563:834 JLINK_WriteReg(R10, 0x00000000)  returns 0x00 (0000ms, 1494ms total)
T2878 8563:834 JLINK_WriteReg(R11, 0x00000000)  returns 0x00 (0000ms, 1494ms total)
T2878 8563:834 JLINK_WriteReg(R12, 0x00000000)  returns 0x00 (0000ms, 1494ms total)
T2878 8563:834 JLINK_WriteReg(R13 (SP), 0x20001000)  returns 0x00 (0000ms, 1494ms total)
T2878 8563:834 JLINK_WriteReg(R14, 0x20000001)  returns 0x00 (0000ms, 1494ms total)
T2878 8563:834 JLINK_WriteReg(R15 (PC), 0x20000112)  returns 0x00 (0000ms, 1494ms total)
T2878 8563:834 JLINK_WriteReg(XPSR, 0x01000000)  returns 0x00 (0000ms, 1494ms total)
T2878 8563:834 JLINK_WriteReg(MSP, 0x20001000)  returns 0x00 (0000ms, 1494ms total)
T2878 8563:834 JLINK_WriteReg(PSP, 0x20001000)  returns 0x00 (0000ms, 1494ms total)
T2878 8563:834 JLINK_WriteReg(CFBP, 0x00000000)  returns 0x00 (0000ms, 1494ms total)
T2878 8563:834 JLINK_SetBPEx(Addr = 0x20000000, Type = 0xFFFFFFF2)  returns 0x00000007 (0000ms, 1494ms total)
T2878 8563:834 JLINK_Go() -- CPU_ReadMem(4 bytes @ 0xE0001000) (0004ms, 1498ms total)
T2878 8563:838 JLINK_IsHalted()  returns FALSE (0000ms, 1498ms total)
T2878 8563:842 JLINK_IsHalted() -- CPU_ReadMem(2 bytes @ 0x20000000)  returns TRUE (0003ms, 1501ms total)
T2878 8563:845 JLINK_ReadReg(R15 (PC))  returns 0x20000000 (0000ms, 1498ms total)
T2878 8563:845 JLINK_ClrBPEx(BPHandle = 0x00000007)  returns 0x00 (0000ms, 1498ms total)
T2878 8563:845 JLINK_ReadReg(R0)  returns 0x00000000 (0000ms, 1498ms total)
T2878 8563:846 JLINK_WriteMem(0x20000188, 0x0278 Bytes, ...) - Data: 00 00 02 40 00 04 02 40 00 08 02 40 00 0C 02 40 ... -- CPU_WriteMem(632 bytes @ 0x20000188)  returns 0x278 (0008ms, 1506ms total)
T2878 8563:854 JLINK_WriteMem(0x20000400, 0x0188 Bytes, ...) - Data: 00 3C 02 40 08 38 02 40 38 19 00 08 10 00 00 20 ... -- CPU_WriteMem(392 bytes @ 0x20000400)  returns 0x188 (0005ms, 1511ms total)
T2878 8563:859 JLINK_WriteReg(R0, 0x08000800)  returns 0x00 (0000ms, 1511ms total)
T2878 8563:859 JLINK_WriteReg(R1, 0x00000400)  returns 0x00 (0000ms, 1511ms total)
T2878 8563:859 JLINK_WriteReg(R2, 0x20000188)  returns 0x00 (0000ms, 1511ms total)
T2878 8563:859 JLINK_WriteReg(R3, 0x00000000)  returns 0x00 (0000ms, 1511ms total)
T2878 8563:859 JLINK_WriteReg(R4, 0x00000000)  returns 0x00 (0000ms, 1511ms total)
T2878 8563:859 JLINK_WriteReg(R5, 0x00000000)  returns 0x00 (0000ms, 1511ms total)
T2878 8563:859 JLINK_WriteReg(R6, 0x00000000)  returns 0x00 (0000ms, 1511ms total)
T2878 8563:859 JLINK_WriteReg(R7, 0x00000000)  returns 0x00 (0000ms, 1511ms total)
T2878 8563:859 JLINK_WriteReg(R8, 0x00000000)  returns 0x00 (0000ms, 1511ms total)
T2878 8563:859 JLINK_WriteReg(R9, 0x20000184)  returns 0x00 (0000ms, 1511ms total)
T2878 8563:859 JLINK_WriteReg(R10, 0x00000000)  returns 0x00 (0000ms, 1511ms total)
T2878 8563:859 JLINK_WriteReg(R11, 0x00000000)  returns 0x00 (0000ms, 1511ms total)
T2878 8563:859 JLINK_WriteReg(R12, 0x00000000)  returns 0x00 (0000ms, 1511ms total)
T2878 8563:859 JLINK_WriteReg(R13 (SP), 0x20001000)  returns 0x00 (0000ms, 1511ms total)
T2878 8563:859 JLINK_WriteReg(R14, 0x20000001)  returns 0x00 (0000ms, 1511ms total)
T2878 8563:859 JLINK_WriteReg(R15 (PC), 0x20000112)  returns 0x00 (0000ms, 1511ms total)
T2878 8563:859 JLINK_WriteReg(XPSR, 0x01000000)  returns 0x00 (0000ms, 1511ms total)
T2878 8563:859 JLINK_WriteReg(MSP, 0x20001000)  returns 0x00 (0000ms, 1511ms total)
T2878 8563:859 JLINK_WriteReg(PSP, 0x20001000)  returns 0x00 (0000ms, 1511ms total)
T2878 8563:859 JLINK_WriteReg(CFBP, 0x00000000)  returns 0x00 (0000ms, 1511ms total)
T2878 8563:859 JLINK_SetBPEx(Addr = 0x20000000, Type = 0xFFFFFFF2)  returns 0x00000008 (0000ms, 1511ms total)
T2878 8563:859 JLINK_Go() -- CPU_ReadMem(4 bytes @ 0xE0001000) (0004ms, 1515ms total)
T2878 8563:863 JLINK_IsHalted()  returns FALSE (0000ms, 1515ms total)
T2878 8563:867 JLINK_IsHalted() -- CPU_ReadMem(2 bytes @ 0x20000000)  returns TRUE (0003ms, 1518ms total)
T2878 8563:870 JLINK_ReadReg(R15 (PC))  returns 0x20000000 (0000ms, 1515ms total)
T2878 8563:870 JLINK_ClrBPEx(BPHandle = 0x00000008)  returns 0x00 (0000ms, 1515ms total)
T2878 8563:870 JLINK_ReadReg(R0)  returns 0x00000000 (0000ms, 1515ms total)
T2878 8563:871 JLINK_WriteMem(0x20000188, 0x0278 Bytes, ...) - Data: 00 68 40 02 06 D4 28 68 80 07 15 D5 E0 68 01 28 ... -- CPU_WriteMem(632 bytes @ 0x20000188)  returns 0x278 (0008ms, 1523ms total)
T2878 8563:879 JLINK_WriteMem(0x20000400, 0x0188 Bytes, ...) - Data: 00 38 02 40 00 00 47 42 80 0E 47 42 00 70 00 40 ... -- CPU_WriteMem(392 bytes @ 0x20000400)  returns 0x188 (0005ms, 1528ms total)
T2878 8563:884 JLINK_WriteReg(R0, 0x08000C00)  returns 0x00 (0000ms, 1528ms total)
T2878 8563:884 JLINK_WriteReg(R1, 0x00000400)  returns 0x00 (0000ms, 1528ms total)
T2878 8563:884 JLINK_WriteReg(R2, 0x20000188)  returns 0x00 (0000ms, 1528ms total)
T2878 8563:884 JLINK_WriteReg(R3, 0x00000000)  returns 0x00 (0000ms, 1528ms total)
T2878 8563:884 JLINK_WriteReg(R4, 0x00000000)  returns 0x00 (0000ms, 1528ms total)
T2878 8563:884 JLINK_WriteReg(R5, 0x00000000)  returns 0x00 (0000ms, 1528ms total)
T2878 8563:884 JLINK_WriteReg(R6, 0x00000000)  returns 0x00 (0000ms, 1528ms total)
T2878 8563:884 JLINK_WriteReg(R7, 0x00000000)  returns 0x00 (0000ms, 1528ms total)
T2878 8563:884 JLINK_WriteReg(R8, 0x00000000)  returns 0x00 (0000ms, 1528ms total)
T2878 8563:884 JLINK_WriteReg(R9, 0x20000184)  returns 0x00 (0000ms, 1528ms total)
T2878 8563:884 JLINK_WriteReg(R10, 0x00000000)  returns 0x00 (0000ms, 1528ms total)
T2878 8563:884 JLINK_WriteReg(R11, 0x00000000)  returns 0x00 (0000ms, 1528ms total)
T2878 8563:884 JLINK_WriteReg(R12, 0x00000000)  returns 0x00 (0000ms, 1528ms total)
T2878 8563:884 JLINK_WriteReg(R13 (SP), 0x20001000)  returns 0x00 (0000ms, 1528ms total)
T2878 8563:884 JLINK_WriteReg(R14, 0x20000001)  returns 0x00 (0000ms, 1528ms total)
T2878 8563:884 JLINK_WriteReg(R15 (PC), 0x20000112)  returns 0x00 (0000ms, 1528ms total)
T2878 8563:884 JLINK_WriteReg(XPSR, 0x01000000)  returns 0x00 (0000ms, 1528ms total)
T2878 8563:884 JLINK_WriteReg(MSP, 0x20001000)  returns 0x00 (0000ms, 1528ms total)
T2878 8563:884 JLINK_WriteReg(PSP, 0x20001000)  returns 0x00 (0000ms, 1528ms total)
T2878 8563:884 JLINK_WriteReg(CFBP, 0x00000000)  returns 0x00 (0000ms, 1528ms total)
T2878 8563:884 JLINK_SetBPEx(Addr = 0x20000000, Type = 0xFFFFFFF2)  returns 0x00000009 (0000ms, 1528ms total)
T2878 8563:884 JLINK_Go() -- CPU_ReadMem(4 bytes @ 0xE0001000) (0004ms, 1532ms total)
T2878 8563:888 JLINK_IsHalted()  returns FALSE (0000ms, 1532ms total)
T2878 8563:891 JLINK_IsHalted()  returns FALSE (0000ms, 1532ms total)
T2878 8563:893 JLINK_IsHalted() -- CPU_ReadMem(2 bytes @ 0x20000000)  returns TRUE (0002ms, 1534ms total)
T2878 8563:895 JLINK_ReadReg(R15 (PC))  returns 0x20000000 (0000ms, 1532ms total)
T2878 8563:895 JLINK_ClrBPEx(BPHandle = 0x00000009)  returns 0x00 (0000ms, 1532ms total)
T2878 8563:895 JLINK_ReadReg(R0)  returns 0x00000000 (0000ms, 1532ms total)
T2878 8563:895 JLINK_WriteMem(0x20000188, 0x0278 Bytes, ...) - Data: 21 F4 00 51 C1 60 20 46 00 F0 A4 FA 20 68 01 69 ... -- CPU_WriteMem(632 bytes @ 0x20000188)  returns 0x278 (0008ms, 1540ms total)
T2878 8563:903 JLINK_WriteMem(0x20000400, 0x0188 Bytes, ...) - Data: 00 22 40 21 20 46 00 97 00 F0 2D FA 08 B1 03 20 ... -- CPU_WriteMem(392 bytes @ 0x20000400)  returns 0x188 (0006ms, 1546ms total)
T2878 8563:909 JLINK_WriteReg(R0, 0x08001000)  returns 0x00 (0000ms, 1546ms total)
T2878 8563:909 JLINK_WriteReg(R1, 0x00000400)  returns 0x00 (0000ms, 1546ms total)
T2878 8563:909 JLINK_WriteReg(R2, 0x20000188)  returns 0x00 (0000ms, 1546ms total)
T2878 8563:909 JLINK_WriteReg(R3, 0x00000000)  returns 0x00 (0000ms, 1546ms total)
T2878 8563:909 JLINK_WriteReg(R4, 0x00000000)  returns 0x00 (0000ms, 1546ms total)
T2878 8563:909 JLINK_WriteReg(R5, 0x00000000)  returns 0x00 (0000ms, 1546ms total)
T2878 8563:909 JLINK_WriteReg(R6, 0x00000000)  returns 0x00 (0000ms, 1546ms total)
T2878 8563:909 JLINK_WriteReg(R7, 0x00000000)  returns 0x00 (0000ms, 1546ms total)
T2878 8563:909 JLINK_WriteReg(R8, 0x00000000)  returns 0x00 (0000ms, 1546ms total)
T2878 8563:909 JLINK_WriteReg(R9, 0x20000184)  returns 0x00 (0000ms, 1546ms total)
T2878 8563:909 JLINK_WriteReg(R10, 0x00000000)  returns 0x00 (0000ms, 1546ms total)
T2878 8563:909 JLINK_WriteReg(R11, 0x00000000)  returns 0x00 (0000ms, 1546ms total)
T2878 8563:909 JLINK_WriteReg(R12, 0x00000000)  returns 0x00 (0000ms, 1546ms total)
T2878 8563:909 JLINK_WriteReg(R13 (SP), 0x20001000)  returns 0x00 (0000ms, 1546ms total)
T2878 8563:909 JLINK_WriteReg(R14, 0x20000001)  returns 0x00 (0000ms, 1546ms total)
T2878 8563:909 JLINK_WriteReg(R15 (PC), 0x20000112)  returns 0x00 (0000ms, 1546ms total)
T2878 8563:909 JLINK_WriteReg(XPSR, 0x01000000)  returns 0x00 (0000ms, 1546ms total)
T2878 8563:909 JLINK_WriteReg(MSP, 0x20001000)  returns 0x00 (0000ms, 1546ms total)
T2878 8563:909 JLINK_WriteReg(PSP, 0x20001000)  returns 0x00 (0000ms, 1546ms total)
T2878 8563:909 JLINK_WriteReg(CFBP, 0x00000000)  returns 0x00 (0000ms, 1546ms total)
T2878 8563:909 JLINK_SetBPEx(Addr = 0x20000000, Type = 0xFFFFFFF2)  returns 0x0000000A (0000ms, 1546ms total)
T2878 8563:909 JLINK_Go() -- CPU_ReadMem(4 bytes @ 0xE0001000) (0004ms, 1550ms total)
T2878 8563:913 JLINK_IsHalted()  returns FALSE (0000ms, 1550ms total)
T2878 8563:916 JLINK_IsHalted()  returns FALSE (0000ms, 1550ms total)
T2878 8563:918 JLINK_IsHalted() -- CPU_ReadMem(2 bytes @ 0x20000000)  returns TRUE (0003ms, 1553ms total)
T2878 8563:921 JLINK_ReadReg(R15 (PC))  returns 0x20000000 (0000ms, 1550ms total)
T2878 8563:921 JLINK_ClrBPEx(BPHandle = 0x0000000A)  returns 0x00 (0000ms, 1550ms total)
T2878 8563:921 JLINK_ReadReg(R0)  returns 0x00000000 (0000ms, 1550ms total)
T2878 8563:921 JLINK_WriteMem(0x20000188, 0x0278 Bytes, ...) - Data: 47 F8 E0 6B 40 F0 10 00 E0 63 20 46 FF F7 52 FD ... -- CPU_WriteMem(632 bytes @ 0x20000188)  returns 0x278 (0009ms, 1559ms total)
T2878 8563:930 JLINK_WriteMem(0x20000400, 0x0188 Bytes, ...) - Data: 00 10 01 40 90 F8 39 10 21 29 01 D0 02 20 70 47 ... -- CPU_WriteMem(392 bytes @ 0x20000400)  returns 0x188 (0005ms, 1564ms total)
T2878 8563:935 JLINK_WriteReg(R0, 0x08001400)  returns 0x00 (0000ms, 1564ms total)
T2878 8563:935 JLINK_WriteReg(R1, 0x00000400)  returns 0x00 (0000ms, 1564ms total)
T2878 8563:935 JLINK_WriteReg(R2, 0x20000188)  returns 0x00 (0000ms, 1564ms total)
T2878 8563:935 JLINK_WriteReg(R3, 0x00000000)  returns 0x00 (0000ms, 1564ms total)
T2878 8563:935 JLINK_WriteReg(R4, 0x00000000)  returns 0x00 (0000ms, 1564ms total)
T2878 8563:935 JLINK_WriteReg(R5, 0x00000000)  returns 0x00 (0000ms, 1564ms total)
T2878 8563:935 JLINK_WriteReg(R6, 0x00000000)  returns 0x00 (0000ms, 1564ms total)
T2878 8563:935 JLINK_WriteReg(R7, 0x00000000)  returns 0x00 (0000ms, 1564ms total)
T2878 8563:935 JLINK_WriteReg(R8, 0x00000000)  returns 0x00 (0000ms, 1564ms total)
T2878 8563:935 JLINK_WriteReg(R9, 0x20000184)  returns 0x00 (0000ms, 1564ms total)
T2878 8563:935 JLINK_WriteReg(R10, 0x00000000)  returns 0x00 (0000ms, 1564ms total)
T2878 8563:935 JLINK_WriteReg(R11, 0x00000000)  returns 0x00 (0000ms, 1564ms total)
T2878 8563:935 JLINK_WriteReg(R12, 0x00000000)  returns 0x00 (0000ms, 1564ms total)
T2878 8563:935 JLINK_WriteReg(R13 (SP), 0x20001000)  returns 0x00 (0000ms, 1564ms total)
T2878 8563:935 JLINK_WriteReg(R14, 0x20000001)  returns 0x00 (0000ms, 1564ms total)
T2878 8563:935 JLINK_WriteReg(R15 (PC), 0x20000112)  returns 0x00 (0000ms, 1564ms total)
T2878 8563:935 JLINK_WriteReg(XPSR, 0x01000000)  returns 0x00 (0000ms, 1564ms total)
T2878 8563:935 JLINK_WriteReg(MSP, 0x20001000)  returns 0x00 (0000ms, 1564ms total)
T2878 8563:935 JLINK_WriteReg(PSP, 0x20001000)  returns 0x00 (0000ms, 1564ms total)
T2878 8563:935 JLINK_WriteReg(CFBP, 0x00000000)  returns 0x00 (0000ms, 1564ms total)
T2878 8563:935 JLINK_SetBPEx(Addr = 0x20000000, Type = 0xFFFFFFF2)  returns 0x0000000B (0000ms, 1564ms total)
T2878 8563:935 JLINK_Go() -- CPU_ReadMem(4 bytes @ 0xE0001000) (0004ms, 1568ms total)
T2878 8563:939 JLINK_IsHalted()  returns FALSE (0000ms, 1568ms total)
T2878 8563:942 JLINK_IsHalted()  returns FALSE (0000ms, 1568ms total)
T2878 8563:945 JLINK_IsHalted() -- CPU_ReadMem(2 bytes @ 0x20000000)  returns TRUE (0003ms, 1571ms total)
T2878 8563:948 JLINK_ReadReg(R15 (PC))  returns 0x20000000 (0000ms, 1568ms total)
T2878 8563:948 JLINK_ClrBPEx(BPHandle = 0x0000000B)  returns 0x00 (0000ms, 1568ms total)
T2878 8563:948 JLINK_ReadReg(R0)  returns 0x00000000 (0000ms, 1568ms total)
T2878 8563:949 JLINK_WriteMem(0x20000188, 0x0278 Bytes, ...) - Data: 19 F8 FF F7 93 FD 2E 48 00 24 01 68 41 F0 01 01 ... -- CPU_WriteMem(632 bytes @ 0x20000188)  returns 0x278 (0008ms, 1576ms total)
T2878 8563:957 JLINK_WriteMem(0x20000400, 0x0188 Bytes, ...) - Data: FF FF FF FF FF FF FF FF FF FF FF FF FF FF FF FF ... -- CPU_WriteMem(392 bytes @ 0x20000400)  returns 0x188 (0005ms, 1581ms total)
T2878 8563:962 JLINK_WriteReg(R0, 0x08001800)  returns 0x00 (0000ms, 1581ms total)
T2878 8563:962 JLINK_WriteReg(R1, 0x00000188)  returns 0x00 (0000ms, 1581ms total)
T2878 8563:962 JLINK_WriteReg(R2, 0x20000188)  returns 0x00 (0000ms, 1581ms total)
T2878 8563:962 JLINK_WriteReg(R3, 0x00000000)  returns 0x00 (0000ms, 1581ms total)
T2878 8563:962 JLINK_WriteReg(R4, 0x00000000)  returns 0x00 (0000ms, 1581ms total)
T2878 8563:962 JLINK_WriteReg(R5, 0x00000000)  returns 0x00 (0000ms, 1581ms total)
T2878 8563:962 JLINK_WriteReg(R6, 0x00000000)  returns 0x00 (0000ms, 1581ms total)
T2878 8563:962 JLINK_WriteReg(R7, 0x00000000)  returns 0x00 (0000ms, 1581ms total)
T2878 8563:962 JLINK_WriteReg(R8, 0x00000000)  returns 0x00 (0000ms, 1581ms total)
T2878 8563:962 JLINK_WriteReg(R9, 0x20000184)  returns 0x00 (0000ms, 1581ms total)
T2878 8563:962 JLINK_WriteReg(R10, 0x00000000)  returns 0x00 (0000ms, 1581ms total)
T2878 8563:962 JLINK_WriteReg(R11, 0x00000000)  returns 0x00 (0000ms, 1581ms total)
T2878 8563:962 JLINK_WriteReg(R12, 0x00000000)  returns 0x00 (0000ms, 1581ms total)
T2878 8563:962 JLINK_WriteReg(R13 (SP), 0x20001000)  returns 0x00 (0000ms, 1581ms total)
T2878 8563:962 JLINK_WriteReg(R14, 0x20000001)  returns 0x00 (0000ms, 1581ms total)
